mpc = 

  struct with fields:

     version: '2'
     baseMVA: 100
       areas: [3x2 double]
         bus: [73x13 double]
         gen: [158x21 double]
      branch: [120x13 double]
     gencost: [158x12 double]
    bus_name: {73x1 cell}
    gen_name: {158x3 cell}
      dcline: [113 316 1 0 0 0 0 1 1 -100 100 -9999 9999 -9999 9999 0 0 0 0 0 0 0 0]


MATPOWER Version 8.0-dev1, 27-Oct-2021 -- DC Power Flow

Converged in 0.02 seconds
================================================================================
|     System Summary                                                           |
================================================================================

How many?                How much?              P (MW)            Q (MVAr)
---------------------    -------------------  -------------  -----------------
Buses             73     Total Gen Capacity   14549.8           0.0 to 0.0
Generators       158     On-line Capacity      9076.0           0.0 to 0.0
Committed Gens    96     Generation (actual)   8550.0               0.0
Loads             51     Load                  8550.0               0.0
  Fixed           51       Fixed               8550.0               0.0
  Dispatchable     0       Dispatchable          -0.0 of -0.0      -0.0
Shunts             0     Shunt (inj)             -0.0               0.0
Branches         120     Losses (I^2 * Z)         0.00              0.00
Transformers      16     Branch Charging (inj)     -                0.0
Inter-ties         5     Total Inter-tie Flow   312.4               0.0
Areas              3

                          Minimum                      Maximum
                 -------------------------  --------------------------------
Voltage Magnitude   1.000 p.u. @ bus 101        1.000 p.u. @ bus 101 
Voltage Angle     -25.37 deg   @ bus 307       20.58 deg   @ bus 122 

================================================================================
|     Bus Data                                                                 |
================================================================================
 Bus      Voltage          Generation             Load        
  #   Mag(pu) Ang(deg)   P (MW)   Q (MVAr)   P (MW)   Q (MVAr)
----- ------- --------  --------  --------  --------  --------
  101  1.000   -7.503    168.00      0.00    108.00      0.00 
  102  1.000   -7.578    168.00      0.00     97.00      0.00 
  103  1.000   -6.807       -         -      180.00      0.00 
  104  1.000  -10.062       -         -       74.00      0.00 
  105  1.000  -10.252       -         -       71.00      0.00 
  106  1.000  -12.657       -         -      136.00      0.00 
  107  1.000   -2.137    355.00      0.00    125.00      0.00 
  108  1.000   -8.321       -         -      171.00      0.00 
  109  1.000   -7.687       -         -      175.00      0.00 
  110  1.000   -9.518       -         -      195.00      0.00 
  111  1.000   -3.354       -         -         -         -   
  112  1.000   -1.675       -         -         -         -   
  113  1.000    0.000*    66.03      0.00    265.00      0.00 
  114  1.000   -1.148      0.00      0.00    194.00      0.00 
  115  1.000    8.816    165.00      0.00    317.00      0.00 
  116  1.000    8.508    155.00      0.00    100.00      0.00 
  117  1.000   12.403       -         -         -         -   
  118  1.000   13.410    355.00      0.00    333.00      0.00 
  119  1.000    7.687       -         -      181.00      0.00 
  120  1.000    9.046       -         -      128.00      0.00 
  121  1.000   14.181    400.00      0.00       -         -   
  122  1.000   20.576    300.00      0.00       -         -   
  123  1.000   10.601    670.00      0.00       -         -   
  124  1.000    2.897       -         -         -         -   
  201  1.000   -9.731    142.00      0.00    108.00      0.00 
  202  1.000   -9.755    168.00      0.00     97.00      0.00 
  203  1.000   -7.031       -         -      180.00      0.00 
  204  1.000  -11.902       -         -       74.00      0.00 
  205  1.000  -12.331       -         -       71.00      0.00 
  206  1.000  -14.644       -         -      136.00      0.00 
  207  1.000  -19.664    110.00      0.00    125.00      0.00 
  208  1.000  -19.139       -         -      171.00      0.00 
  209  1.000   -9.251       -         -      175.00      0.00 
  210  1.000  -11.443       -         -      195.00      0.00 
  211  1.000   -3.069       -         -         -         -   
  212  1.000   -0.982       -         -         -         -   
  213  1.000    3.135    465.00      0.00    265.00      0.00 
  214  1.000   -1.370      0.00      0.00    194.00      0.00 
  215  1.000    7.269    260.00      0.00    317.00      0.00 
  216  1.000    7.575    155.00      0.00    100.00      0.00 
  217  1.000   11.033       -         -         -         -   
  218  1.000   11.908    355.00      0.00    333.00      0.00 
  219  1.000    7.692       -         -      181.00      0.00 
  220  1.000    9.867       -         -      128.00      0.00 
  221  1.000   12.556    296.97      0.00       -         -   
  222  1.000   19.052    300.00      0.00       -         -   
  223  1.000   11.870    726.00      0.00       -         -   
  224  1.000    1.852       -         -         -         -   
  301  1.000  -17.934    104.00      0.00    108.00      0.00 
  302  1.000  -18.000    126.00      0.00     97.00      0.00 
  303  1.000  -12.859       -         -      180.00      0.00 
  304  1.000  -18.671       -         -       74.00      0.00 
  305  1.000  -19.383       -         -       71.00      0.00 
  306  1.000  -21.079       -         -      136.00      0.00 
  307  1.000  -25.374    110.00      0.00    125.00      0.00 
  308  1.000  -24.850       -         -      171.00      0.00 
  309  1.000  -14.811       -         -      175.00      0.00 
  310  1.000  -17.304       -         -      195.00      0.00 
  311  1.000   -7.871       -         -         -         -   
  312  1.000   -6.022       -         -         -         -   
  313  1.000   -2.437    355.00      0.00    265.00      0.00 
  314  1.000   -4.609      0.00      0.00    194.00      0.00 
  315  1.000    6.851    190.00      0.00    317.00      0.00 
  316  1.000    6.531    155.00      0.00    100.00      0.00 
  317  1.000   10.675       -         -         -         -   
  318  1.000   11.771    355.00      0.00    333.00      0.00 
  319  1.000    6.050       -         -      181.00      0.00 
  320  1.000    7.706       -         -      128.00      0.00 
  321  1.000   12.614    355.00      0.00       -         -   
  322  1.000   19.182    310.00      0.00       -         -   
  323  1.000    9.423    710.00      0.00       -         -   
  324  1.000   -0.616       -         -         -         -   
  325  1.000    9.827       -         -         -         -   
                        --------  --------  --------  --------
               Total:   8550.00      0.00   8550.00      0.00

================================================================================
|     Branch Data                                                              |
================================================================================
Brnch   From   To    From Bus Injection   To Bus Injection     Loss (I^2 * Z)  
  #     Bus    Bus    P (MW)   Q (MVAr)   P (MW)   Q (MVAr)   P (MW)   Q (MVAr)
-----  -----  -----  --------  --------  --------  --------  --------  --------
   1    101    102      9.31      0.00     -9.31      0.00     0.000      0.00
   2    101    103     -5.76      0.00      5.76      0.00     0.000      0.00
   3    101    105     56.44      0.00    -56.44      0.00     0.000      0.00
   4    102    104     34.14      0.00    -34.14      0.00     0.000      0.00
   5    102    106     46.17      0.00    -46.17      0.00     0.000      0.00
   6    103    109     12.90      0.00    -12.90      0.00     0.000      0.00
   7    103    124   -198.65      0.00    198.65      0.00     0.000      0.00
   8    104    109    -39.86      0.00     39.86      0.00     0.000      0.00
   9    105    110    -14.56      0.00     14.56      0.00     0.000      0.00
  10    106    110    -89.83      0.00     89.83      0.00     0.000      0.00
  11    107    108    176.94      0.00   -176.94      0.00     0.000      0.00
  12    107    203     53.06      0.00    -53.06      0.00     0.000      0.00
  13    108    109     -6.71      0.00      6.71      0.00     0.000      0.00
  14    108    110     12.66      0.00    -12.66      0.00     0.000      0.00
  15    109    111    -87.41      0.00     87.41      0.00     0.000      0.00
  16    109    112   -121.26      0.00    121.26      0.00     0.000      0.00
  17    110    111   -126.19      0.00    126.19      0.00     0.000      0.00
  18    110    112   -160.54      0.00    160.54      0.00     0.000      0.00
  19    111    113   -121.94      0.00    121.94      0.00     0.000      0.00
  20    111    114    -91.65      0.00     91.65      0.00     0.000      0.00
  21    112    113    -60.92      0.00     60.92      0.00     0.000      0.00
  22    112    123   -220.89      0.00    220.89      0.00     0.000      0.00
  23    113    123   -212.66      0.00    212.66      0.00     0.000      0.00
  24    113    215   -169.17      0.00    169.17      0.00     0.000      0.00
  25    114    116   -285.65      0.00    285.65      0.00     0.000      0.00
  26    115    116     31.57      0.00    -31.57      0.00     0.000      0.00
  27    115    121   -191.11      0.00    191.11      0.00     0.000      0.00
  28    115    121   -191.11      0.00    191.11      0.00     0.000      0.00
  29    115    124    198.65      0.00   -198.65      0.00     0.000      0.00
  30    116    117   -261.43      0.00    261.43      0.00     0.000      0.00
  31    116    119     62.35      0.00    -62.35      0.00     0.000      0.00
  32    117    118   -125.57      0.00    125.57      0.00     0.000      0.00
  33    117    122   -135.86      0.00    135.86      0.00     0.000      0.00
  34    118    121    -51.78      0.00     51.78      0.00     0.000      0.00
  35    118    121    -51.78      0.00     51.78      0.00     0.000      0.00
  36    119    120    -59.33      0.00     59.33      0.00     0.000      0.00
  37    119    120    -59.33      0.00     59.33      0.00     0.000      0.00
  38    120    123   -123.33      0.00    123.33      0.00     0.000      0.00
  39    120    123   -123.33      0.00    123.33      0.00     0.000      0.00
  40    121    122   -164.14      0.00    164.14      0.00     0.000      0.00
  41    123    217    -10.20      0.00     10.20      0.00     0.000      0.00
  42    201    202      2.95      0.00     -2.95      0.00     0.000      0.00
  43    201    203    -22.33      0.00     22.33      0.00     0.000      0.00
  44    201    205     53.39      0.00    -53.39      0.00     0.000      0.00
  45    202    204     29.51      0.00    -29.51      0.00     0.000      0.00
  46    202    206     44.44      0.00    -44.44      0.00     0.000      0.00
  47    203    209     32.56      0.00    -32.56      0.00     0.000      0.00
  48    203    224   -181.84      0.00    181.84      0.00     0.000      0.00
  49    204    209    -44.49      0.00     44.49      0.00     0.000      0.00
  50    205    210    -17.61      0.00     17.61      0.00     0.000      0.00
  51    206    210    -91.56      0.00     91.56      0.00     0.000      0.00
  52    207    208    -15.00      0.00     15.00      0.00     0.000      0.00
  53    208    209   -104.59      0.00    104.59      0.00     0.000      0.00
  54    208    210    -81.41      0.00     81.41      0.00     0.000      0.00
  55    209    211   -124.72      0.00    124.72      0.00     0.000      0.00
  56    209    212   -166.80      0.00    166.80      0.00     0.000      0.00
  57    210    211   -171.44      0.00    171.44      0.00     0.000      0.00
  58    210    212   -214.14      0.00    214.14      0.00     0.000      0.00
  59    211    213   -225.55      0.00    225.55      0.00     0.000      0.00
  60    211    214    -70.60      0.00     70.60      0.00     0.000      0.00
  61    212    213   -149.69      0.00    149.69      0.00     0.000      0.00
  62    212    223   -231.26      0.00    231.26      0.00     0.000      0.00
  63    213    223   -175.25      0.00    175.25      0.00     0.000      0.00
  64    214    216   -264.60      0.00    264.60      0.00     0.000      0.00
  65    215    216    -31.38      0.00     31.38      0.00     0.000      0.00
  66    215    221   -188.32      0.00    188.32      0.00     0.000      0.00
  67    215    221   -188.32      0.00    188.32      0.00     0.000      0.00
  68    215    224    181.84      0.00   -181.84      0.00     0.000      0.00
  69    216    217   -232.14      0.00    232.14      0.00     0.000      0.00
  70    216    219     -8.84      0.00      8.84      0.00     0.000      0.00
  71    217    218   -109.05      0.00    109.05      0.00     0.000      0.00
  72    217    222   -133.29      0.00    133.29      0.00     0.000      0.00
  73    218    221    -43.53      0.00     43.53      0.00     0.000      0.00
  74    218    221    -43.53      0.00     43.53      0.00     0.000      0.00
  75    219    220    -94.92      0.00     94.92      0.00     0.000      0.00
  76    219    220    -94.92      0.00     94.92      0.00     0.000      0.00
  77    220    223   -158.92      0.00    158.92      0.00     0.000      0.00
  78    220    223   -158.92      0.00    158.92      0.00     0.000      0.00
  79    221    222   -166.71      0.00    166.71      0.00     0.000      0.00
  80    301    302      8.22      0.00     -8.22      0.00     0.000      0.00
  81    301    303    -41.98      0.00     41.98      0.00     0.000      0.00
  82    301    305     29.76      0.00    -29.76      0.00     0.000      0.00
  83    302    304      9.23      0.00     -9.23      0.00     0.000      0.00
  84    302    306     27.99      0.00    -27.99      0.00     0.000      0.00
  85    303    309     28.64      0.00    -28.64      0.00     0.000      0.00
  86    303    324   -250.62      0.00    250.62      0.00     0.000      0.00
  87    304    309    -64.77      0.00     64.77      0.00     0.000      0.00
  88    305    310    -41.24      0.00     41.24      0.00     0.000      0.00
  89    306    310   -108.01      0.00    108.01      0.00     0.000      0.00
  90    307    308    -15.00      0.00     15.00      0.00     0.000      0.00
  91    308    309   -106.18      0.00    106.18      0.00     0.000      0.00
  92    308    310    -79.82      0.00     79.82      0.00     0.000      0.00
  93    309    311   -140.01      0.00    140.01      0.00     0.000      0.00
  94    309    312   -177.31      0.00    177.31      0.00     0.000      0.00
  95    310    311   -193.11      0.00    193.11      0.00     0.000      0.00
  96    310    312   -230.95      0.00    230.95      0.00     0.000      0.00
  97    311    313   -197.58      0.00    197.58      0.00     0.000      0.00
  98    311    314   -135.54      0.00    135.54      0.00     0.000      0.00
  99    312    313   -130.35      0.00    130.35      0.00     0.000      0.00
 100    312    323   -277.91      0.00    277.91      0.00     0.000      0.00
 101    313    323   -237.93      0.00    237.93      0.00     0.000      0.00
 102    314    316   -329.54      0.00    329.54      0.00     0.000      0.00
 103    315    316     32.88      0.00    -32.88      0.00     0.000      0.00
 104    315    321   -205.25      0.00    205.25      0.00     0.000      0.00
 105    315    321   -205.25      0.00    205.25      0.00     0.000      0.00
 106    315    324    250.62      0.00   -250.62      0.00     0.000      0.00
 107    316    317   -278.15      0.00    278.15      0.00     0.000      0.00
 108    316    319     36.50      0.00    -36.50      0.00     0.000      0.00
 109    317    318   -136.74      0.00    136.74      0.00     0.000      0.00
 110    317    322   -141.41      0.00    141.41      0.00     0.000      0.00
 111    318    321    -56.54      0.00     56.54      0.00     0.000      0.00
 112    318    321    -56.54      0.00     56.54      0.00     0.000      0.00
 113    319    320    -72.25      0.00     72.25      0.00     0.000      0.00
 114    319    320    -72.25      0.00     72.25      0.00     0.000      0.00
 115    320    323   -136.25      0.00    136.25      0.00     0.000      0.00
 116    320    323   -136.25      0.00    136.25      0.00     0.000      0.00
 117    321    322   -168.59      0.00    168.59      0.00     0.000      0.00
 118    325    121    -78.34      0.00     78.34      0.00     0.000      0.00
 119    318    223     -1.66      0.00      1.66      0.00     0.000      0.00
 120    323    325    -78.34      0.00     78.34      0.00     0.000      0.00
                                                             --------  --------
                                                    Total:     0.000      0.00

MATPOWER Version 8.0-dev1, 27-Oct-2021 -- AC Power Flow (Newton)

Newton's method power flow (power balance, polar) converged in 4 iterations.

Converged in 0.04 seconds
================================================================================
|     System Summary                                                           |
================================================================================

How many?                How much?              P (MW)            Q (MVAr)
---------------------    -------------------  -------------  -----------------
Buses             73     Total Gen Capacity   14549.8       -1615.0 to 4406.0
Generators       158     On-line Capacity      9076.0       -1615.0 to 4406.0
Committed Gens    96     Generation (actual)   8704.0            1718.7
Loads             51     Load                  8550.0            1740.0
  Fixed           51       Fixed               8550.0            1740.0
  Dispatchable     0       Dispatchable          -0.0 of -0.0      -0.0
Shunts             3     Shunt (inj)             -0.0            -316.1
Branches         120     Losses (I^2 * Z)       153.97           1442.60
Transformers      16     Branch Charging (inj)     -             1780.0
Inter-ties         5     Total Inter-tie Flow   331.2              25.0
Areas              3

                          Minimum                      Maximum
                 -------------------------  --------------------------------
Voltage Magnitude   0.951 p.u. @ bus 308        1.050 p.u. @ bus 121 
Voltage Angle     -30.66 deg   @ bus 307       16.52 deg   @ bus 122 
P Losses (I^2*R)             -                  9.42 MW    @ line 312-323
Q Losses (I^2*X)             -                 76.11 MVAr  @ line 312-323

================================================================================
|     Bus Data                                                                 |
================================================================================
 Bus      Voltage          Generation             Load        
  #   Mag(pu) Ang(deg)   P (MW)   Q (MVAr)   P (MW)   Q (MVAr)
----- ------- --------  --------  --------  --------  --------
  101  1.047   -8.575    168.00     10.68    108.00     22.00 
  102  1.047   -8.634    168.00      4.66     97.00     20.00 
  103  1.011   -7.980       -         -      180.00     37.00 
  104  1.017  -10.745       -         -       74.00     15.00 
  105  1.035  -10.928       -         -       71.00     14.00 
  106  1.032  -13.157       -         -      136.00     28.00 
  107  1.050   -3.989    355.00     49.51    125.00     25.00 
  108  1.017   -9.342       -         -      171.00     35.00 
  109  1.027   -8.460       -         -      175.00     36.00 
  110  1.050  -10.203       -         -      195.00     40.00 
