MATLAB is selecting SOFTWARE OPENGL rendering.
[?1h=
                                                                               < M A T L A B (R) >
                                                                     Copyright 1984-2016 The MathWorks, Inc.
                                                                     R2016a (9.0.0.341360) 64-bit (glnxa64)
                                                                                February 11, 2016

 
To get started, type one of these: helpwin, helpdesk, or demo.
For product information, visit www.mathworks.com.
 

MATPOWER Version 6.1-dev, 07-Aug-2017 -- DC Power Flow

Converged in 0.02 seconds
================================================================================
|     System Summary                                                           |
================================================================================

How many?                How much?              P (MW)            Q (MVAr)
---------------------    -------------------  -------------  -----------------
Buses             73     Total Gen Capacity   14549.8           0.0 to 0.0
Generators       158     On-line Capacity      8976.0           0.0 to 0.0
Committed Gens    94     Generation (actual)   8550.0               0.0
Loads             51     Load                  8550.0               0.0
  Fixed           51       Fixed               8550.0               0.0
  Dispatchable     0       Dispatchable          -0.0 of -0.0      -0.0
Shunts             0     Shunt (inj)             -0.0               0.0
Branches         120     Losses (I^2 * Z)         0.00              0.00
Transformers      16     Branch Charging (inj)     -                0.0
Inter-ties         5     Total Inter-tie Flow   281.3               0.0
Areas              3

                          Minimum                      Maximum
                 -------------------------  --------------------------------
Voltage Magnitude   1.000 p.u. @ bus 101        1.000 p.u. @ bus 101 
Voltage Angle     -26.60 deg   @ bus 307       19.12 deg   @ bus 222 

================================================================================
|     Bus Data                                                                 |
================================================================================
 Bus      Voltage          Generation             Load        
  #   Mag(pu) Ang(deg)   P (MW)   Q (MVAr)   P (MW)   Q (MVAr)
----- ------- --------  --------  --------  --------  --------
  101  1.000   -9.026    172.00      0.00    108.00      0.00 
  102  1.000   -9.092    172.00      0.00     97.00      0.00 
  103  1.000   -8.775       -         -      180.00      0.00 
  104  1.000  -11.707       -         -       74.00      0.00 
  105  1.000  -11.846       -         -       71.00      0.00 
  106  1.000  -14.288       -         -      136.00      0.00 
  107  1.000   -8.388    263.00      0.00    125.00      0.00 
  108  1.000  -12.642       -         -      171.00      0.00 
  109  1.000   -9.439       -         -      175.00      0.00 
  110  1.000  -11.186       -         -      195.00      0.00 
  111  1.000   -4.519       -         -         -         -   
  112  1.000   -2.600       -         -         -         -   
  113  1.000    0.000*   167.68      0.00    265.00      0.00 
  114  1.000   -2.799      0.00      0.00    194.00      0.00 
  115  1.000    6.309    179.00      0.00    317.00      0.00 
  116  1.000    6.174    155.00      0.00    100.00      0.00 
  117  1.000    9.398       -         -         -         -   
  118  1.000   10.363    350.00      0.00    333.00      0.00 
  119  1.000    5.913       -         -      181.00      0.00 
  120  1.000    7.760       -         -      128.00      0.00 
  121  1.000   11.133    400.00      0.00       -         -   
  122  1.000   15.180    200.00      0.00       -         -   
  123  1.000    9.582    670.00      0.00       -         -   
  124  1.000    0.594       -         -         -         -   
  201  1.000  -13.452     96.00      0.00    108.00      0.00 
  202  1.000  -13.286    172.00      0.00     97.00      0.00 
  203  1.000   -9.889       -         -      180.00      0.00 
  204  1.000  -14.672       -         -       74.00      0.00 
  205  1.000  -15.309       -         -       71.00      0.00 
  206  1.000  -17.170       -         -      136.00      0.00 
  207  1.000  -21.840    110.00      0.00    125.00      0.00 
  208  1.000  -21.316       -         -      171.00      0.00 
  209  1.000  -11.397       -         -      175.00      0.00 
  210  1.000  -13.651       -         -      195.00      0.00 
  211  1.000   -4.738       -         -         -         -   
  212  1.000   -2.553       -         -         -         -   
  213  1.000    1.360*   413.85      0.00    265.00      0.00 
  214  1.000   -2.450      0.00      0.00    194.00      0.00 
  215  1.000    7.044    260.00      0.00    317.00      0.00 
  216  1.000    7.322    155.00      0.00    100.00      0.00 
  217  1.000   10.880       -         -         -         -   
  218  1.000   11.942    355.00      0.00    333.00      0.00 
  219  1.000    7.637       -         -      181.00      0.00 
  220  1.000    9.985       -         -      128.00      0.00 
  221  1.000   12.765    355.00      0.00       -         -   
  222  1.000   19.118    300.00      0.00       -         -   
  223  1.000   12.084    825.00      0.00       -         -   
  224  1.000    0.629       -         -         -         -   
  301  1.000  -18.073    130.00      0.00    108.00      0.00 
  302  1.000  -18.223    130.00      0.00     97.00      0.00 
  303  1.000  -13.575       -         -      180.00      0.00 
  304  1.000  -19.455       -         -       74.00      0.00 
  305  1.000  -20.046       -         -       71.00      0.00 
  306  1.000  -22.048       -         -      136.00      0.00 
  307  1.000  -26.598    110.00      0.00    125.00      0.00 
  308  1.000  -26.074       -         -      171.00      0.00 
  309  1.000  -16.053       -         -      175.00      0.00 
  310  1.000  -18.510       -         -      195.00      0.00 
  311  1.000   -9.412       -         -         -         -   
  312  1.000   -7.739       -         -         -         -   
  313  1.000   -4.690*   299.46      0.00    265.00      0.00 
  314  1.000   -5.837      0.00      0.00    194.00      0.00 
  315  1.000    6.366    225.00      0.00    317.00      0.00 
  316  1.000    5.743    155.00      0.00    100.00      0.00 
  317  1.000   10.079       -         -         -         -   
  318  1.000   11.272    355.00      0.00    333.00      0.00 
  319  1.000    4.853       -         -      181.00      0.00 
  320  1.000    6.154       -         -      128.00      0.00 
  321  1.000   12.115    355.00      0.00       -         -   
  322  1.000   18.645    310.00      0.00       -         -   
  323  1.000    7.676    710.00      0.00       -         -   
  324  1.000   -1.189       -         -         -         -   
  325  1.000    7.969       -         -         -         -   
                        --------  --------  --------  --------
               Total:   8550.00      0.00   8550.00      0.00

================================================================================
|     Branch Data                                                              |
================================================================================
Brnch   From   To    From Bus Injection   To Bus Injection     Loss (I^2 * Z)  
  #     Bus    Bus    P (MW)   Q (MVAr)   P (MW)   Q (MVAr)   P (MW)   Q (MVAr)
-----  -----  -----  --------  --------  --------  --------  --------  --------
   1    101    102      8.17      0.00     -8.17      0.00     0.000      0.00
   2    101    103     -2.08      0.00      2.08      0.00     0.000      0.00
   3    101    105     57.90      0.00    -57.90      0.00     0.000      0.00
   4    102    104     35.94      0.00    -35.94      0.00     0.000      0.00
   5    102    106     47.24      0.00    -47.24      0.00     0.000      0.00
   6    103    109      9.73      0.00     -9.73      0.00     0.000      0.00
   7    104    109    -38.06      0.00     38.06      0.00     0.000      0.00
   8    105    110    -13.10      0.00     13.10      0.00     0.000      0.00
   9    106    110    -88.76      0.00     88.76      0.00     0.000      0.00
  10    107    108    121.72      0.00   -121.72      0.00     0.000      0.00
  11    107    203     16.28      0.00    -16.28      0.00     0.000      0.00
  12    108    109    -33.88      0.00     33.88      0.00     0.000      0.00
  13    108    110    -15.40      0.00     15.40      0.00     0.000      0.00
  14    111    113   -164.30      0.00    164.30      0.00     0.000      0.00
  15    111    114    -71.45      0.00     71.45      0.00     0.000      0.00
  16    112    113    -94.53      0.00     94.53      0.00     0.000      0.00
  17    112    123   -219.19      0.00    219.19      0.00     0.000      0.00
  18    113    123   -192.23      0.00    192.23      0.00     0.000      0.00
  19    113    215   -163.91      0.00    163.91      0.00     0.000      0.00
  20    114    116   -265.45      0.00    265.45      0.00     0.000      0.00
  21    115    116     13.84      0.00    -13.84      0.00     0.000      0.00
  22    115    121   -171.82      0.00    171.82      0.00     0.000      0.00
  23    115    121   -171.82      0.00    171.82      0.00     0.000      0.00
  24    115    124    191.81      0.00   -191.81      0.00     0.000      0.00
  25    116    117   -216.43      0.00    216.43      0.00     0.000      0.00
  26    116    119     19.83      0.00    -19.83      0.00     0.000      0.00
  27    117    118   -120.32      0.00    120.32      0.00     0.000      0.00
  28    117    122    -96.11      0.00     96.11      0.00     0.000      0.00
  29    118    121    -51.66      0.00     51.66      0.00     0.000      0.00
  30    118    121    -51.66      0.00     51.66      0.00     0.000      0.00
  31    119    120    -80.59      0.00     80.59      0.00     0.000      0.00
  32    119    120    -80.59      0.00     80.59      0.00     0.000      0.00
  33    120    123   -144.59      0.00    144.59      0.00     0.000      0.00
  34    120    123   -144.59      0.00    144.59      0.00     0.000      0.00
  35    121    122   -103.89      0.00    103.89      0.00     0.000      0.00
  36    123    217    -30.60      0.00     30.60      0.00     0.000      0.00
  37    201    202    -20.65      0.00     20.65      0.00     0.000      0.00
  38    201    203    -29.47      0.00     29.47      0.00     0.000      0.00
  39    201    205     38.12      0.00    -38.12      0.00     0.000      0.00
  40    202    204     19.04      0.00    -19.04      0.00     0.000      0.00
  41    202    206     35.31      0.00    -35.31      0.00     0.000      0.00
  42    203    209     22.12      0.00    -22.12      0.00     0.000      0.00
  43    204    209    -54.96      0.00     54.96      0.00     0.000      0.00
  44    205    210    -32.88      0.00     32.88      0.00     0.000      0.00
  45    206    210   -100.69      0.00    100.69      0.00     0.000      0.00
  46    207    208    -15.00      0.00     15.00      0.00     0.000      0.00
  47    208    209   -104.92      0.00    104.92      0.00     0.000      0.00
  48    208    210    -81.08      0.00     81.08      0.00     0.000      0.00
  49    211    213   -221.72      0.00    221.72      0.00     0.000      0.00
  50    211    214    -95.08      0.00     95.08      0.00     0.000      0.00
  51    212    213   -142.26      0.00    142.26      0.00     0.000      0.00
  52    212    223   -263.35      0.00    263.35      0.00     0.000      0.00
  53    213    223   -215.13      0.00    215.13      0.00     0.000      0.00
  54    214    216   -289.08      0.00    289.08      0.00     0.000      0.00
  55    215    216    -28.63      0.00     28.63      0.00     0.000      0.00
  56    215    221   -203.80      0.00    203.80      0.00     0.000      0.00
  57    215    221   -203.80      0.00    203.80      0.00     0.000      0.00
  58    215    224    215.31      0.00   -215.31      0.00     0.000      0.00
  59    216    217   -238.80      0.00    238.80      0.00     0.000      0.00
  60    216    219    -23.90      0.00     23.90      0.00     0.000      0.00
  61    217    218   -132.47      0.00    132.47      0.00     0.000      0.00
  62    217    222   -136.94      0.00    136.94      0.00     0.000      0.00
  63    218    221    -55.23      0.00     55.23      0.00     0.000      0.00
  64    218    221    -55.23      0.00     55.23      0.00     0.000      0.00
  65    219    220   -102.45      0.00    102.45      0.00     0.000      0.00
  66    219    220   -102.45      0.00    102.45      0.00     0.000      0.00
  67    220    223   -166.45      0.00    166.45      0.00     0.000      0.00
  68    220    223   -166.45      0.00    166.45      0.00     0.000      0.00
  69    221    222   -163.06      0.00    163.06      0.00     0.000      0.00
  70    301    302     18.69      0.00    -18.69      0.00     0.000      0.00
  71    301    303    -37.21      0.00     37.21      0.00     0.000      0.00
  72    301    305     40.52      0.00    -40.52      0.00     0.000      0.00
  73    302    304     16.92      0.00    -16.92      0.00     0.000      0.00
  74    302    306     34.77      0.00    -34.77      0.00     0.000      0.00
  75    303    309     36.35      0.00    -36.35      0.00     0.000      0.00
  76    304    309    -57.08      0.00     57.08      0.00     0.000      0.00
  77    305    310    -30.48      0.00     30.48      0.00     0.000      0.00
  78    306    310   -101.23      0.00    101.23      0.00     0.000      0.00
  79    307    308    -15.00      0.00     15.00      0.00     0.000      0.00
  80    308    309   -105.99      0.00    105.99      0.00     0.000      0.00
  81    308    310    -80.01      0.00     80.01      0.00     0.000      0.00
  82    311    313   -171.68      0.00    171.68      0.00     0.000      0.00
  83    311    314   -148.55      0.00    148.55      0.00     0.000      0.00
  84    312    313   -110.86      0.00    110.86      0.00     0.000      0.00
  85    312    323   -277.36      0.00    277.36      0.00     0.000      0.00
  86    313    323   -248.07      0.00    248.07      0.00     0.000      0.00
  87    314    316   -342.55      0.00    342.55      0.00     0.000      0.00
  88    315    316     63.96      0.00    -63.96      0.00     0.000      0.00
  89    315    321   -204.76      0.00    204.76      0.00     0.000      0.00
  90    315    321   -204.76      0.00    204.76      0.00     0.000      0.00
  91    315    324    253.56      0.00   -253.56      0.00     0.000      0.00
  92    316    317   -291.09      0.00    291.09      0.00     0.000      0.00
  93    316    319     67.51      0.00    -67.51      0.00     0.000      0.00
  94    317    318   -148.71      0.00    148.71      0.00     0.000      0.00
  95    317    322   -142.38      0.00    142.38      0.00     0.000      0.00
  96    318    321    -56.55      0.00     56.55      0.00     0.000      0.00
  97    318    321    -56.55      0.00     56.55      0.00     0.000      0.00
  98    319    320    -56.75      0.00     56.75      0.00     0.000      0.00
  99    319    320    -56.75      0.00     56.75      0.00     0.000      0.00
 100    320    323   -120.75      0.00    120.75      0.00     0.000      0.00
 101    320    323   -120.75      0.00    120.75      0.00     0.000      0.00
 102    321    322   -167.62      0.00    167.62      0.00     0.000      0.00
 103    325    121    -56.92      0.00     56.92      0.00     0.000      0.00
 104    318    223    -13.62      0.00     13.62      0.00     0.000      0.00
 105    103    124   -191.81      0.00    191.81      0.00     0.000      0.00
 106    109    111    -99.26      0.00     99.26      0.00     0.000      0.00
 107    109    112   -137.96      0.00    137.96      0.00     0.000      0.00
 108    110    111   -136.49      0.00    136.49      0.00     0.000      0.00
 109    110    112   -175.77      0.00    175.77      0.00     0.000      0.00
 110    203    224   -215.31      0.00    215.31      0.00     0.000      0.00
 111    209    211   -134.34      0.00    134.34      0.00     0.000      0.00
 112    209    212   -178.42      0.00    178.42      0.00     0.000      0.00
 113    210    211   -182.46      0.00    182.46      0.00     0.000      0.00
 114    210    212   -227.19      0.00    227.19      0.00     0.000      0.00
 115    303    324   -253.56      0.00    253.56      0.00     0.000      0.00
 116    309    311   -133.99      0.00    133.99      0.00     0.000      0.00
 117    309    312   -167.73      0.00    167.73      0.00     0.000      0.00
 118    310    311   -186.24      0.00    186.24      0.00     0.000      0.00
 119    310    312   -220.48      0.00    220.48      0.00     0.000      0.00
 120    323    325    -56.92      0.00     56.92      0.00     0.000      0.00
                                                             --------  --------
                                                    Total:     0.000      0.00

MATPOWER Version 6.1-dev, 07-Aug-2017 -- AC Power Flow (Newton)

Newton's method power flow converged in 3 iterations.

Converged in 0.11 seconds
================================================================================
|     System Summary                                                           |
================================================================================

How many?                How much?              P (MW)            Q (MVAr)
---------------------    -------------------  -------------  -----------------
Buses             73     Total Gen Capacity   14549.8       -1615.0 to 4406.0
Generators       158     On-line Capacity      8976.0       -1585.0 to 4358.0
Committed Gens    94     Generation (actual)   8708.8            1682.6
Loads             51     Load                  8550.0            1740.0
  Fixed           51       Fixed               8550.0            1740.0
  Dispatchable     0       Dispatchable          -0.0 of -0.0      -0.0
Shunts             6     Shunt (inj)             -0.0            -146.0
Branches         120     Losses (I^2 * Z)       158.79           1523.06
Transformers      16     Branch Charging (inj)     -             1726.5
Inter-ties         5     Total Inter-tie Flow   274.5              53.6
Areas              3

                          Minimum                      Maximum
                 -------------------------  --------------------------------
Voltage Magnitude   0.975 p.u. @ bus 308        1.050 p.u. @ bus 325 
Voltage Angle     -28.59 deg   @ bus 307       17.43 deg   @ bus 222 
P Losses (I^2*R)             -                  8.96 MW    @ line 312-323
Q Losses (I^2*X)             -                 72.42 MVAr  @ line 312-323

================================================================================
|     Bus Data                                                                 |
================================================================================
 Bus      Voltage          Generation             Load        
  #   Mag(pu) Ang(deg)   P (MW)   Q (MVAr)   P (MW)   Q (MVAr)
----- ------- --------  --------  --------  --------  --------
  101  1.035   -9.892    172.00     22.58    108.00     22.00 
  102  1.035   -9.954    172.00     15.75     97.00     20.00 
  103  0.987   -9.238       -         -      180.00     37.00 
  104  0.999  -12.190       -         -       74.00     15.00 
  105  1.018  -12.362       -         -       71.00     14.00 
  106  1.011  -14.705       -         -      136.00     28.00 
  107  1.050   -9.540    263.00     36.87    125.00     25.00 
